frequency_Hz,S11_real,S11_imag,S12_real,S12_imag,S21_real,S21_imag,S22_real,S22_imag
1000000.0,-0.048271578834123245,-0.001167676601978869,0.94648195812988,-0.009720495346549823,0.9537978126602552,-0.0044061802093278485,-0.053557230777776126,-0.0008674105996554192
1009252.8860766834,-0.04710024780250092,0.0008451695535326841,0.9480879864981496,-0.006695241505350204,0.9494070124507529,-0.0006189884045033961,-0.043577681567363344,-0.0043593067322408915
1018591.388054117,-0.0455615347651969,0.00038579661993732987,0.9564029634059522,-0.0005032767078258475,0.9578397973878598,0.0021668816506270477,-0.05032418305088376,0.003298506297779856
1028016.2981264725,-0.042372850474826154,0.0011670622255613397,0.9472514789100047,0.00257197513949925,0.9549920998775381,-0.0016656010876311962,-0.0493459332944691,0.009441508517537249
1037528.4158180127,-0.05087530557919447,-0.004709334998524647,0.9545313894556088,-0.002290613383475188,0.9556880752581355,0.0027112868788215613,-0.044415815726693904,0.0021910564062209105
1047128.5480508985,-0.046867249325810614,0.0012582900475384634,0.9528425916177099,0.00191604378351612,0.9542247741130072,-0.0077400215605809,-0.04655608467263222,0.005114973911422663
1056817.5092136585,-0.045724517427083666,-0.0011653312020226652,0.9530947352482529,0.0039089167919584685,0.9553304805201377,-0.007569055872377359,-0.05331449018856109,0.0004462769161946559
1066596.1212302567,-0.04807872403016896,-0.0024281504686997682,0.9475372704041739,0.0015465280388417641,0.9533491901942506,0.0006538540919481622,-0.041872511251878665,0.0008252747995543266
1076465.213629835,-0.04927856768031075,-0.004166406719941407,0.9528261111625438,-0.000659502733996325,0.9550284325587293,-0.00109069547888388,-0.05485630120467919,0.0012734743348448273
1086425.6236170644,-0.0494466617829116,0.0029981713218702037,0.9536565297120481,6.229756488322104e-05,0.9422412433647926,-0.004930971171507026,-0.05103810482116934,-8.784232866324184e-05
1096478.196143185,-0.04376627641767281,0.008670101893539103,0.9558912098270703,0.005292353738563935,0.9536908344712881,-0.010879063375545263,-0.044531587584706205,-0.0002469638679613596
1106623.7839776652,-0.04686641881175737,0.002789416931528407,0.9543245985438157,-0.0011111459508532265,0.9512759283868254,-0.002083319627368891,-0.047213939242005225,-0.0014073761596575076
1116863.2477805612,-0.049832584372499635,0.0014552851660908591,0.9568029036845938,-0.004497022943242955,0.9577061699132133,0.003683032247702374,-0.04278959321760455,-0.0006733535038736654
1127197.4561755094,-0.04904767315530398,-0.0037543801147504495,0.9490424983727908,0.0034534304095354073,0.9568501153231942,-0.005889753323250771,-0.04571561728036152,-0.0024250304948655703
1137627.2858234309,-0.04646925184657801,-0.00248711587735881,0.9501629906607811,0.0070175436349657234,0.9538705263023178,-0.0028838258390987857,-0.05141777025072748,-0.008028631420611103
1148153.6214968818,-0.04540008343275031,-0.0025271052950832386,0.9572068017695947,0.0011036738243104802,0.9580893577246508,0.002253543521436371,-0.045139467489642565,0.007477136535443458
1158777.3561551261,-0.052456381826027396,0.004428848233181181,0.9530713490559575,0.00016243581343362975,0.9598695797018484,-0.0036152474017811242,-0.05065944696890146,0.005188802744446353
1169499.39101987,-0.04782644671867894,-0.0017898485811963973,0.9573280240178105,-0.002803426481805704,0.9545406575137646,-0.001959634462593832,-0.038938764077795264,-0.00488288499119342
1180320.6356517298,-0.050184358955378656,-0.0021320717688287907,0.9489165386358285,-0.0013203806046548304,0.9566651229113444,0.002052796670612037,-0.05180489131302897,-0.0018628106225839418
1191242.0080273738,-0.048308009066633996,-0.004945276888097332,0.952150915987219,-0.006122372085060978,0.9560066420510782,0.00022432457466837748,-0.0454693832176843,-0.00025497905452024207
1202264.4346174132,-0.04601959899065016,-0.0024539753160933556,0.950972165737075,-0.002149978438569516,0.9566331878765176,0.0008458234379498266,-0.03352894204072371,0.004353031061065448
1213388.8504649762,-0.04519984402306326,-0.003249141749448828,0.9527295213571204,-0.00020747577819085636,0.9478381482322339,0.0028353107090737626,-0.049850516441903504,-0.0032350357206352453
1224616.1992650488,-0.0483673224634186,-0.0005781469802851396,0.9505095625144622,-0.0006564191901204028,0.9523243909345532,-0.005112967901965887,-0.04139628037577748,6.631120236610857e-05
1235947.4334445095,-0.043254257807195495,-0.0004178714819282605,0.9518247434743731,0.0014145170165424325,0.9481516781756815,-0.004682380518356263,-0.042938555267829415,-0.0004933815086294835
1247383.5142429431,-0.047791037448386024,0.004302903273802752,0.9463379010191205,0.006738083462700425,0.9548741579234543,0.003947286492408054,-0.04402944409645417,-0.004652916218768427
1258925.411794166,-0.056110032483581915,0.0010405851173340374,0.9494947056862242,-0.002229112282182553,0.9519940578941123,0.0004555528061360685,-0.04504856487673046,-0.003240857740037888
1270574.105208542,-0.04942447179118217,-0.006540235284500441,0.9494681445980936,-0.0017488885734668045,0.9549257336288833,0.0019860312001176634,-0.04925848705159707,0.00046492090614094956
1282330.5826560205,-0.04572217325233872,0.0008622142337438406,0.9484903306783298,0.00020912285447142608,0.9476474699034134,0.0008677428860035913,-0.04497592247776276,0.0013051878808470604
1294195.8414499862,-0.04673555073494789,-0.0015145598112525113,0.9556092246452687,-0.00026305784494268984,0.9505165540757168,0.00554822950213257,-0.050402238979737245,-5.606620840736094e-05
1306170.8881318404,-0.042856860316000576,-0.0004093210325134104,0.9470502679036256,-0.00019819749480972564,0.9567607360597384,-0.0013209730842088925,-0.04299760994620537,-0.002082039143124934
1318256.7385564074,-0.04460906923537123,0.0001669157445496934,0.9499732911551612,-0.0023334622975863467,0.949522784036159,-0.0010727613438995718,-0.04835457774079614,-0.0033302605635713227
1330454.41797809,-0.052152027630768524,-0.0001906313941409431,0.9490146822425038,0.0014760095946050422,0.9546371812584231,-0.0013103747196992574,-0.04534666686207407,-0.007597997239123659
1342764.9611378643,-0.05129290699704734,0.001492365833973977,0.9547470316693754,-0.00015329112056101279,0.9539706664659144,-0.004050244645267284,-0.04233479321315513,0.0021325112779112822
1355189.412351035,-0.045627424017867374,-0.005473733320227203,0.9560856321236665,0.003079681535913901,0.954050370003852,-0.0007800282864869825,-0.04418964968046359,-0.008520272881542395
1367728.8255958494,-0.05212431819272421,3.954875241043228e-05,0.9519544862553748,-0.0020062780913291745,0.9522441521664666,-0.0025335773243918757,-0.04847253295901043,-0.003166644968107663
1380384.2646028837,-0.046065811641299206,-0.0010352693487606624,0.9546009139433274,-0.002288174464836103,0.9537534849223412,-0.007088429931910457,-0.04823871843168238,0.003862223522619109
1393156.8029453035,-0.050194476954148255,-0.0014507252056790059,0.9562207295848567,-0.0031572459653866087,0.9536046431834583,-0.004544956298721347,-0.05118457017908825,0.0021020888262725367
1406047.524129913,-0.04829733502467521,-0.005145495145149586,0.9462790224991229,-0.00013202769680886468,0.9525043685213147,-0.002643754759869283,-0.048313758427996616,-0.0024399520652799113
1419057.5216890925,-0.049630070038644676,-0.004469002437065128,0.9579266649519113,-0.002777662092475289,0.9483340248692015,-0.000575700708375475,-0.04514706038151282,0.00021704871357199746
1432187.8992735425,-0.039965964364330975,-0.003361730042042208,0.956150994735416,-0.0009304267660827324,0.9522701713350653,0.002497434150844693,-0.05158868316557418,-0.006431356306873538
1445439.770745928,-0.052386667894969985,-0.0006397619736808191,0.9509401187907243,-0.003945564375016917,0.9499760471543769,-0.004302215168517171,-0.050137864458277906,0.0002957197293840413
1458814.2602753474,-0.04876155485703978,-0.0025319173251542792,0.9520226774120095,-0.004882348126640671,0.9540787840538679,0.004011453987427136,-0.051951744531008974,0.0025967761153435813
1472312.5024327193,-0.0500073186744965,-0.007392377545876049,0.9518216823220903,-0.005789805146626194,0.9516963364349876,0.0014477930509964295,-0.04119198241208385,-0.0016263651142500999
1485935.642287006,-0.04680661008039962,0.0046168816583009855,0.9467329625032089,0.0015220477979521704,0.9538441616106206,0.00041299973654762817,-0.045709650125329196,-0.004211649018330396
1499684.835502374,-0.04805742916508932,0.0010790346582834228,0.9481336305733351,-0.005106180215368862,0.9585337103673645,0.0039273494931930135,-0.05136407476376714,0.0008364786878216188
1513561.2484362072,-0.04530678640215851,-0.0035338445462007183,0.9530806877271094,0.0021694334709139573,0.9544833477969898,0.007198399584428029,-0.041645486390028574,-0.0014085973768822222
1527566.0582380733,-0.04565376128031861,0.0012735226024170921,0.9504251778725352,-0.0021643261804209376,0.9562514756301355,-0.0003541907998382235,-0.04982834540796665,-0.005928244521612498
1541700.4529495584,-0.04704705265372838,-0.0006608182806683211,0.9478547016783329,-0.0005064443289906533,0.9487640100107095,0.005637527235558826,-0.047439652347085165,-0.006941475877859518
1555965.631605075,-0.04633121072981708,-0.0016481544126066257,0.9464221186107311,0.0038433479566792263,0.954120991578152,-0.001511262541025045,-0.05048751562794417,-0.00126475767117689
1570362.8043335516,-0.04314061482956797,-0.0035876226328209553,0.9511486016146973,-0.003935334876652998,0.948447799172158,-0.007061704226149378,-0.04735420693155961,-0.0028734694124878855
1584893.1924611141,-0.05082635422403159,-0.004140169418323979,0.9568217762747598,-0.0002642908076317891,0.9523823240061097,-0.003434265433914607,-0.04815039990108255,-0.0023559951731013202
1599558.028614668,-0.045548237154106865,-0.002266413747377804,0.9488631432424337,-0.0008522730096922965,0.9478684214859849,-0.002533522769092937,-0.04619031019231961,-0.004399946186455956
1614358.556826487,-0.05146839736582992,-0.00038983846237602515,0.9485304145740777,0.0030461702407326794,0.955309096221474,-0.00024038933092574902,-0.0457818255028553,-0.0028243925500286366
1629296.0326397214,-0.052007962624253175,-0.0011274181134582762,0.9502134646240373,-0.007873620391878475,0.9492173803285199,-0.0011843153190166154,-0.041402441682526006,-0.002097645987447244
1644371.7232149323,-0.04444853224064354,-0.003969960704622221,0.9509074743018407,-0.0033351936847613164,0.9543971126755614,-0.0021386702069881923,-0.05236622038789857,0.0027707545144232894
1659586.9074375597,-0.04997383995460782,0.003112858628006967,0.9527474430053519,-0.0039577908961756945,0.953963229196566,-0.002522623637075235,-0.047960685364741705,-0.0024334176812333807
1674942.876026438,-0.046751541006367664,0.0021174929197419726,0.9526545893159687,-0.0002066434504728042,0.9518078907990546,-0.0003911518654398172,-0.04865609786653558,0.0011610027622907008
1690440.9316432632,-0.049111525400129995,-0.002809987599703584,0.9531921829344423,0.004051062339973877,0.9538182562164403,-0.0007286469712360288,-0.04692534126014183,-0.00371823423193702
1706082.3890031243,-0.051744698259530174,-0.0015329671026986882,0.9488841439364726,0.003582522885321304,0.9537764777362919,-0.002217223725349451,-0.04246875203217839,0.0025942260472506624
1721868.5749860061,-0.04708616489819224,-0.0029246839639432533,0.9509395415426827,-0.0034157966279635,0.9531655725804018,0.0015726172478370938,-0.051598493992444934,-0.0037948776515030207
1737800.8287493763,-0.04303832858878337,0.0021361073134063798,0.9530334498691171,0.0004879074344221685,0.950037270117102,-0.0038003623327961264,-0.04820341376798606,-0.0009928331661397238
1753880.5018417602,-0.049464267269393056,-0.0026703664627947374,0.9569712044616885,0.00047176150250535244,0.9516725192297648,0.005857637411507612,-0.04707586034576583,-0.002047122555942335
1770108.958317422,-0.04561160888056834,0.001111624035206163,0.9497876654079763,-0.0006710506774623057,0.9530583316526252,-0.0006723909625774808,-0.04665912698596813,-0.0013348108458589448
1786487.5748520498,-0.05305893857900563,-0.003764554645196526,0.9532647750052883,0.0004093962395225059,0.9522201700672657,-0.0017741897076839468,-0.04716478068302741,-0.003930393876051628
1803017.74085957,-0.04749497014351956,0.002778947399166085,0.9532874204145887,-0.0004241253392447596,0.9570610271491299,-0.0015690053694042976,-0.05174795008303443,0.003919539132909083
1819700.8586099825,-0.04881721896288904,-0.007204075204233672,0.9547134794127324,0.003677082983183629,0.9540635547484102,-0.0038584476518449405,-0.04601176635194028,-3.742594191386104e-05
1836538.3433483473,-0.03798217739823232,-0.0028432097607888045,0.9545297766813194,-0.004015490262949799,0.9563385846338035,0.0038136162195232057,-0.04869444985907278,0.005711771364517181
1853531.6234148105,-0.05109490304675721,-0.0015665397809776266,0.9512801792595654,0.00038191145398118063,0.9548721508615852,-0.0005927806228801017,-0.04619581224621461,0.0052645239270361415
1870682.1403658015,-0.046208342250725634,-0.008195607159103354,0.9516300725983884,0.0005203514514297874,0.9510719687863329,-0.0033445226925197503,-0.04824922240284814,-0.00904545466816511
1887991.3490962926,-0.04508407051080261,-0.0020688343521712057,0.9553228114122154,0.005661191757018074,0.9488584196397697,-0.0031031511775702634,-0.04495153562837079,0.001960700261807276
1905460.7179632483,-0.049897271665695755,0.003380906803959421,0.9540214784233948,-0.0008588846949306901,0.9517083725433324,-0.00039285122132283993,-0.042139487435712504,-0.006821488558656253
1923091.7289101575,-0.04908302156859377,-0.0033285553713125506,0.9530053810759722,0.002352544834946698,0.9545033156842985,-0.0006096050105785509,-0.05067861634258979,0.0004637131948446
1940885.8775927792,-0.04787477331212194,-0.0003635360148884423,0.9514471792856912,0.0068424262612583895,0.9505818791899513,-0.0023364069529392246,-0.049158804123318973,0.004789347606672964
1958844.673505989,-0.04372773602197031,-0.0003700023339386624,0.9502852853128897,0.005092432799370567,0.9543626404739015,-0.0051246869240657526,-0.04651870460834009,-0.00019098088495421342
1976969.640111862,-0.05250923126891732,-0.0022229144487467324,0.9541972921707883,-0.0003568575295394502,0.9474329029021439,0.003433306214316861,-0.04542147946512609,0.00048082291373822137
1995262.3149688789,-0.04939498561851598,0.0034185099340762566,0.9524094705188396,-0.0031986033074768347,0.9478502053087499,-0.003732750082351032,-0.04719147673494115,-0.0007964617250375942
2013724.2498623894,-0.04437550266886544,-0.0009960032273037497,0.9495557918701583,-0.0015112283938196257,0.9502550860667334,-0.00421593164278235,-0.046028655549276445,0.0033345599615466582
2032357.0109362209,-0.045941179528393855,-0.002138614942381813,0.9438605287944122,0.00412258868757978,0.9594340786120817,-0.0008240829619504026,-0.045769906468738984,0.00140081651768455
2051162.1788255668,-0.04518064314208955,0.001075261182073032,0.951877749976008,-0.0037616841595278405,0.9458864042593923,0.00040848765713385386,-0.045258331246299126,0.0058724427373350145
2070141.3487910414,-0.049598031634142975,-4.191883333231499e-06,0.9542838873943068,0.002269633819274382,0.9516143227187456,0.001541616686888168,-0.046786735708427556,0.00018983903509297467
2089296.1308540408,-0.05033237622518559,-0.0002403465189343948,0.9554054724091231,0.0010225824259535439,0.948220784471645,0.0017784668816936376,-0.03976039590156601,-0.005625596230649763
2108628.149933289,-0.0397870843081858,-3.572493634148807e-05,0.9580945440184926,-0.00154555763079469,0.9568442719195706,-0.00227162900096006,-0.04791582378445814,0.0036345902784209265
2128139.0459827133,-0.043537006991688304,-0.0034756363899778537,0.95204346179423,-0.005791316232839373,0.946942768140338,0.0018753822670961244,-0.042358715512696175,-0.005881003019692979
2147830.474130533,-0.04366905106891994,-0.007665841931982976,0.9522703764340574,0.002260895755836876,0.9480919184101925,-0.00036251328215929416,-0.049671639057175164,0.0007364775366627131
2167704.1048196964,-0.05399396276528851,-0.0024750321860052818,0.9556878297659807,-0.005771957134908172,0.9467684653977931,-0.005076790921938441,-0.046616045172668916,-0.0018791968222860976
2187761.623949552,-0.05057289677174182,-0.005388518790495957,0.947386567887989,0.00013957638687697531,0.9532142727719622,-0.002553711570903277,-0.048788267903105025,-0.00028748262200424155
2208004.733018901,-0.04468632533486503,-0.0004007427781039058,0.9479433943555956,0.0004100372135894308,0.9497294115369876,0.0008044276186150819,-0.05597673493357194,-0.0021474132946237715
2228435.149270303,-0.055265218060171956,-0.00030860129237761846,0.9586736687629005,-0.00012646527612541396,0.9596725891823246,-0.009453609807422802,-0.04729546295374045,0.001310346384912191
2249054.605835783,-0.050503423145624386,-0.00043650933788046326,0.951335406295833,0.001012864003701155,0.9554374872437507,-0.005465259608716761,-0.04942038403432876,-0.002066513137719719
2269864.851883821,-0.046788322054027706,-0.004790554969665495,0.9523353132346419,0.0016359029450590994,0.9503891150660364,-0.005888109768925694,-0.04946171519964512,-0.004220493608414087
2290867.6527677746,-0.04659343599844087,0.0008909204277111251,0.9489608324733039,-0.003181989884211176,0.9539609936603423,-0.004228546320002514,-0.049270585408112286,0.002194338982149831
2312064.790175594,-0.04717429228694657,0.00232875191323344,0.9572237911283746,0.0015390099390553962,0.9517912499884904,0.0019822446239529286,-0.044400762662543405,-0.001798766711121296
2333458.0622810046,-0.05389221200227357,-0.001713458692274114,0.9507336324455775,-0.0032656677559135695,0.9524768131670859,-0.00041033119404003957,-0.040888439629457506,-0.002845027426686429
2355049.283896009,-0.05447994880764337,-0.0025223436562880138,0.9520431489671415,0.001093039583396556,0.9574782944619732,0.0031392754237567363,-0.05036768793466781,0.0003872989544017383
2376840.286624878,-0.04836507222498612,0.005264179547161913,0.9535409500591983,-0.0034852304833016944,0.9530256435495336,-0.00744883721841948,-0.04213993972440583,0.0014852716323763644
2398832.91901949,-0.04605049829495471,-0.0037267436423392957,0.9570270485040887,-0.0019832490542895085,0.9511198141192043,-0.007219613993499669,-0.05021199556958706,-0.004172562073786128
2421029.04673618,-0.04841020842381528,-0.006292609371646515,0.9483229619249669,-0.002554874835590251,0.9540721136884888,-0.002415743642209514,-0.04897075064288987,-0.0007199519732004574
2443430.5526939714,-0.04997145939952033,0.0032946419726381736,0.9541251061840743,0.0013247835245374256,0.9483767965274909,-0.006721982129341624,-0.04492344050110388,0.001083665622040058
2466039.337234341,-0.049294400501115054,-0.0006629105462215518,0.9564366179129344,-0.0013964444993930043,0.9510051988348014,-0.0011335003420469513,-0.045408535808442556,-0.0003381184889647683
2488857.3182823905,-0.04699177312268851,-0.0034854087559005376,0.9549834151271069,-0.0017020329886893021,0.952764572691623,0.00307998194626836,-0.05344213237409499,-0.0035274752328424263
2511886.4315095823,-0.04408948623814077,-0.0046782561468102475,0.9520728461459091,-0.0012896239477558915,0.9551430426452536,-0.0050306308288446296,-0.04520440095644723,-0.007103389155287598
2535128.6304979073,-0.05032682391624983,-0.002289217670549585,0.9491779298491764,0.0039865940451860055,0.9546734566223615,-0.0012186968863568532,-0.048681657835646985,-0.0004585627202189805
2558585.886905648,-0.044342806782098,-0.008549128045366497,0.9517559874397485,0.00043983043170575664,0.9559616249608381,-0.0007668282772532863,-0.046138743565498935,-0.003420810689975299
2582260.1906345957,-0.04661242023786439,-0.0004735511539491618,0.951070628088545,-0.0005083021438046103,0.9531931639333513,-0.004811935553110245,-0.043445348213529425,5.776023987221282e-05
2606153.5499988976,-0.04781011071289047,0.003076033533617858,0.9542387539453246,-0.001911735609384491,0.9525419036593051,-0.0041505201537570605,-0.047184242457959824,-0.0017354706895332324
