frequency_Hz,S11_real,S11_imag,S12_real,S12_imag,S21_real,S21_imag,S22_real,S22_imag
1000000.0,-0.023323757035570086,0.004854745431424726,0.9719697888134478,-0.0012258578287312914,0.9782363123706121,-0.0012626066705464791,-0.021098290307341346,0.0014944278659769995
1009252.8860766834,-0.03121889040096994,-0.00308396118867801,0.9710521044853005,0.0039311150156755926,0.9760571741704042,0.0011147077692644312,-0.02549711631388405,0.000746712130816753
1018591.388054117,-0.024449071725836838,0.0022520475745566645,0.9726240785789207,0.005877614329150514,0.9786876252374481,0.0004460534700150751,-0.021667995900570506,-0.0005479315606910383
1028016.2981264725,-0.024159160675064507,0.005126819294606651,0.9795550761078594,0.0032327270689466,0.9772460145813535,-0.0012771288283654014,-0.027397791736620096,-0.00013554681671580312
1037528.4158180127,-0.023099640822413538,0.0005287116559168247,0.9722536423303962,0.0011112237562484696,0.9786843074878733,-0.004903221028155869,-0.02456500925515417,-0.005553817677174431
1047128.5480508985,-0.025037287297653574,-0.003262421948832952,0.9732264775693411,-0.0035331414223640618,0.979888625660114,-0.002409940920728123,-0.02493112221248597,0.002064930375490651
1056817.5092136585,-0.025889416869883865,-0.0007492575217848169,0.9743772630809784,0.0005293756428874264,0.9774728126571239,-0.004443067409796148,-0.023111215267038715,-0.001773753184871541
1066596.1212302567,-0.022945705827478298,0.0018959343348800598,0.9771176035424636,0.0019228661223919244,0.9831054966349826,-0.0026954758798845594,-0.02581272252541041,0.0004063508711015561
1076465.213629835,-0.026183120004410775,0.0075350244716044954,0.9727615249984721,-0.0002225357679784012,0.9777656575263539,-0.0025870973270822268,-0.020438867428137275,-0.0007691113783512286
1086425.6236170644,-0.02478908704805791,0.00016018767345439634,0.9726691813843654,-0.0006915215353064421,0.9727240447988149,-0.00027217365525727564,-0.022113196188879393,-0.005214495992168458
1096478.196143185,-0.021788881849836062,-0.003533141832274386,0.9775107684900202,-0.0006866084992237982,0.9732804445754415,-0.0007423730645520852,-0.02357770681831459,-0.002145597631483559
1106623.7839776652,-0.023981871629185247,-0.0007849995941013354,0.9763751381273739,4.809995111591258e-05,0.978659728761641,0.002947495055002032,-0.023607687540466406,-0.0005126931161249842
1116863.2477805612,-0.02201407501207705,0.0012298782668958685,0.9758462542603826,-0.0020625840066667415,0.9766216454125864,0.0018353520809466692,-0.02218076369239379,0.0011480730899952308
1127197.4561755094,-0.02949031838367261,0.002861831485344789,0.9744908777285717,0.0023285835927711277,0.9739634226957975,0.0018920466542994322,-0.026626345483029473,-0.0005129889560868102
1137627.2858234309,-0.025353271434698784,0.0006871998983421033,0.980842021033915,0.003552193853266807,0.9725793175396683,-0.002452348389223316,-0.021001299314335208,-0.002369514621752565
1148153.6214968818,-0.030280318307350496,0.0004633486973085637,0.9744376282883548,0.001281817720411384,0.9761793616211725,-0.0030560339429417187,-0.02233849594693771,-0.00043333016746428257
1158777.3561551261,-0.02190098163895922,-0.0005022452667046444,0.9783864406549657,-0.007926729961516046,0.9743891875788964,-0.0009418285193095568,-0.026008505942560198,-0.0007238619718735297
1169499.39101987,-0.021387359655812992,-0.00073587791509482,0.9749401596227015,0.004780847345806185,0.9711448226281044,-0.004430146659995317,-0.028356780489225214,-0.0030610316144303973
1180320.6356517298,-0.02760835882383137,-0.009319155800555326,0.9773497867813626,-0.0018596788380471493,0.9761082142534215,-0.00156122294587866,-0.02197357708358854,-0.0019613906236075535
1191242.0080273738,-0.02588566067844787,0.003698767320371878,0.9761646125024986,0.002834057960358089,0.9777992899626158,9.439516711428234e-05,-0.025472989305290836,-0.0014752490552108
1202264.4346174132,-0.02279156368929629,0.003411912500491789,0.9732929821855197,-0.0002489038473077153,0.9743390345162752,-0.003043696474096837,-0.025726359649741383,-0.006186621709078166
1213388.8504649762,-0.028575716396024162,-0.0017260152850541873,0.977314126046287,0.002459838103684832,0.9739668141728279,0.007786470856981516,-0.024346548220915618,3.4221655243867706e-05
1224616.1992650488,-0.02270766495745414,-0.0028618374674458636,0.9771725808524799,-0.0043304713935195475,0.9779385696177799,0.0017487489725447976,-0.024734977459407805,-0.006359249347869737
1235947.4334445095,-0.02587182299460148,0.0017414205503205405,0.9753307073593808,0.0026772033173236244,0.9697040505787,0.0013421907817184556,-0.029455172555927746,-0.0009536031563815194
1247383.5142429431,-0.029019728196386062,0.0017907951670638198,0.9721193565502494,0.0004117871785990189,0.9770089302403866,-0.002909930566862102,-0.027559456246905863,0.006289946007962559
1258925.411794166,-0.02571384915507961,-0.0014191005854671942,0.9801570188263096,0.002526910294744296,0.9743627958853434,-0.008653372746265387,-0.02180897572630694,0.004279425332902864
1270574.105208542,-0.027657942771094707,0.0049507087458661135,0.9748906876564032,-8.554610548168999e-05,0.9722846419167529,0.001765734261157231,-0.025576896656712103,0.001764838775201546
1282330.5826560205,-0.021449203097629033,-0.002441464572617963,0.9695640969400969,0.0017232059901622627,0.9771302011736807,-0.0030219287234293716,-0.023558206970566944,-0.0023223713116340694
1294195.8414499862,-0.02646980712412322,0.003750804939952321,0.9705485152304562,0.003217805856159985,0.9758621709978142,-0.002665810318695998,-0.026243506760907746,-0.0027610132635443665
1306170.8881318404,-0.02357591625291991,-0.002454874566761171,0.9756861995166707,0.0023689520244698993,0.9812159431269619,-0.0036952331909957084,-0.02522802768881696,0.0010532077784665157
1318256.7385564074,-0.027972524943579363,0.002416870415857862,0.9762371810029443,-0.0005059524973880195,0.9763797046744984,0.003338129517665078,-0.019633127206061307,-0.0012621790145764427
1330454.41797809,-0.021467395098954404,-0.0009474117076642674,0.976858764247368,-0.003619278913147065,0.9807312756596132,0.0033612036124851512,-0.02855095514978541,-0.002881738668611613
1342764.9611378643,-0.026629415578294468,0.0010234437006685659,0.9723666989914105,-0.00045036389627491324,0.9742453804752846,-0.0038854983822249607,-0.02920868673011743,-0.0023326186647157645
1355189.412351035,-0.02216725766785303,0.004637437587698586,0.9748319345784509,0.0005031861502766998,0.9704618919875373,-0.0037346414437279284,-0.02794481276592984,0.0008660337567764394
1367728.8255958494,-0.02329298829793966,-0.0007158891351767935,0.978543156223615,0.01188467238325875,0.9825982713569059,0.0007934434201020678,-0.014191768132989691,-0.0015366769893281613
1380384.2646028837,-0.022939854544405523,0.004763715564926144,0.9721463290190171,-0.00665000873285368,0.9681475504565691,0.00012373840000511982,-0.023453297442668084,0.006774117584055033
1393156.8029453035,-0.02723558220612847,-0.0006149892729120639,0.974155961216829,-0.0062748454339212004,0.9734673728307486,-0.0015940046530900167,-0.02488305647499968,0.004882521365703704
1406047.524129913,-0.020659358391546485,0.0011060245095585878,0.9761593807867556,-0.0031462154608579234,0.9750544888710615,-0.002608568902690695,-0.02801507733419358,-0.0021691700265884578
1419057.5216890925,-0.030251680347900028,0.0010520283836321657,0.9739076322768087,0.004471522254728465,0.9754214710307012,0.0034713163342402777,-0.018202535343905188,0.001383878426825129
1432187.8992735425,-0.02393433007406761,-0.004874884001839577,0.9790492973893581,-0.004861891140615429,0.9738621745058903,0.001652254732609787,-0.028537594081682296,-0.004923276184403515
1445439.770745928,-0.02776820044077141,-0.001005593211083041,0.9730714170011668,0.0008484179243086935,0.9830593522905651,-0.004197687621112337,-0.02726514515024346,-0.003801026807598948
1458814.2602753474,-0.021455580449860248,-0.0005475319917328479,0.9724494622137579,0.0015446677405887058,0.9788702128821224,0.003497207430702666,-0.023042964281566936,0.0019065787559514491
1472312.5024327193,-0.02493852621126608,3.767168599641077e-05,0.9754670375890633,-0.0028318080339259427,0.9733179494965345,-0.003968300881932087,-0.02282904086427548,-0.002008196205628287
1485935.642287006,-0.025982736674034355,0.0012126113466969187,0.9713200853339731,0.0009560197724606336,0.9711369239970398,-0.007571820150772996,-0.023786236780814207,-0.002972032799671327
1499684.835502374,-0.01886347603595086,0.003991557579315806,0.9761696752141198,5.303381600874841e-05,0.9751944704252282,-0.00518375004716619,-0.023389903944778485,0.00802115528428779
1513561.2484362072,-0.0198192902954453,-0.00032758958567257634,0.9763775423633544,0.0011188753350260278,0.9741714583006629,0.0011720431235870705,-0.020518285906209577,-0.0015128776541315512
1527566.0582380733,-0.022889649832646488,-0.002774895276901579,0.980984848604724,0.007197475057204093,0.9762510231630147,0.0032828331531354286,-0.028675938978283886,0.002648392813353669
1541700.4529495584,-0.029178855558607174,0.0017865115382159865,0.9813879494015619,-0.003742111499063647,0.9816425316614942,0.004240855038293207,-0.02501861560773645,-0.0031814649358388736
1555965.631605075,-0.02573145499768809,0.0007588703648750492,0.9807247556491356,-0.0059704980977782025,0.9717350407391357,-0.00737563940591853,-0.027521843940057522,0.0008813857806336905
1570362.8043335516,-0.022138656623588382,-0.0030666333941991512,0.9742285816649915,-0.007196872458557429,0.9755917730614798,0.0016573473012977914,-0.02496235054983583,0.00718549673966079
1584893.1924611141,-0.023208790534664743,0.004626502498537192,0.9805358850591371,-0.0011375710049228776,0.9759267457186953,-0.0002059998330537138,-0.02213651567899201,0.0028700134922506723
1599558.028614668,-0.03156590487906009,0.0036882971140512442,0.9754391830677931,-0.0014415259712608753,0.9726583915285235,-0.00011952895033491964,-0.028656148236934208,0.0008130008683049479
1614358.556826487,-0.02746383689958525,0.0016972033293294387,0.9744402643422128,-0.0007071313386859069,0.9788153552829116,-0.0006616621493870775,-0.029032678127423096,0.004588049362493886
1629296.0326397214,-0.0242830945013997,0.003989725355513677,0.9739151022578525,0.001427339903989884,0.9744628394442532,0.005773284642043825,-0.02088065233691405,-0.0015961572708288845
1644371.7232149323,-0.02250690182675111,0.005434555991208355,0.9802905875197849,0.00165295297337995,0.9750689242663607,0.011202740348756587,-0.026826104997112313,-0.004419537822733149
1659586.9074375597,-0.02517381286715414,-0.0026608342934879995,0.9764584317613769,0.0012176664879746126,0.9762276997465157,0.0011421932746991676,-0.028185665260889177,0.006577360533885261
1674942.876026438,-0.02407359394559607,-0.002589733182759161,0.9764084909741926,0.0029167930242178027,0.9844208509500751,0.003818198725176193,-0.017821352041807785,0.002215845621561474
1690440.9316432632,-0.027376661103282553,-0.0036162261119415226,0.9746038488582514,0.004674416903183291,0.9704876436172439,0.004049898344397546,-0.02645778392519889,0.001845806904059918
1706082.3890031243,-0.02328569308101086,0.00046013942595364235,0.9798301770795318,0.0005363005558776023,0.9730578959743204,-0.0005306527521155193,-0.026679823133814343,0.0019876704906065493
1721868.5749860061,-0.031905823437543085,-0.000148465696499588,0.9750403574446352,-0.003227275095541254,0.9718912377250339,-0.003927508438703582,-0.02624334982923905,-0.0028895645695900317
1737800.8287493763,-0.027459325819976194,0.0005176431259108034,0.9752797679637266,-0.0003541651505355035,0.9694576375338624,0.0004938835534983445,-0.029524971455258103,0.001493026244399111
1753880.5018417602,-0.016937949490702084,-0.002457847045673101,0.9711037065827398,0.004867586784244693,0.9717709360926077,-0.0011992116996301853,-0.01796111703367653,-0.0017792182516993063
1770108.958317422,-0.014222580600787365,0.0014237016990610793,0.9715092011059825,-0.006692435839915259,0.9743208129581131,-0.0030315207056327217,-0.023194871264837005,0.0031691046638189116
1786487.5748520498,-0.01833987527239769,-0.006348075660472382,0.9721556831976841,0.0036444107805110506,0.9747512105113855,0.005021879073501976,-0.02166963551160116,-0.0015601925911381141
1803017.74085957,-0.022868637126686277,0.0007517743418388167,0.9742931353633753,0.003647234452825324,0.9751413012368745,-0.0019033325023055877,-0.02920245371661438,0.0027676439776883667
1819700.8586099825,-0.025223927876007978,-0.002621085430408554,0.9746773240128721,-0.001943672674117331,0.9764222748415953,-0.0030697422725886117,-0.026333965037963206,0.0009272005497306087
1836538.3433483473,-0.022739936353710802,0.0037783096537368464,0.9791541841797508,-0.0009189772926526513,0.976153681464221,-0.004723954089935987,-0.023159173753221577,-0.004064055908246432
1853531.6234148105,-0.024204278902841946,0.0011039752687178848,0.9756099727564557,0.006177284740800936,0.9730842242632358,0.0011009147915213848,-0.023282592703507902,-0.001631260633358391
1870682.1403658015,-0.02473082717726848,0.0024019569934879185,0.982935764998436,-0.0011179321150416883,0.9811164180758423,-0.0016036851512627984,-0.023039861148873516,-0.0036342937604214986
1887991.3490962926,-0.027061025807417427,0.004647296153870639,0.9717162342745724,-0.009169502512226431,0.9797786747623254,0.002510232399985835,-0.023470703285470757,-0.0019053820832829866
1905460.7179632483,-0.022709825179993096,-0.0017210792172047665,0.9695036219537267,0.005638216389288221,0.97885570759359,-0.0027843454798243015,-0.022799855908113464,-0.0026651286962235577
1923091.7289101575,-0.02827683603392115,-0.0007439025166698132,0.9739593345354548,0.0011609431698913768,0.9765326815767774,-0.0018340179184765,-0.024206694844223626,-0.005796028937327055
1940885.8775927792,-0.02541292936414322,-0.0033201267276757452,0.9752474608479385,0.004194485403036252,0.9747277489624453,-2.846433261527589e-05,-0.023856361421472138,0.0012886223983738115
1958844.673505989,-0.019240109913003164,-0.001207842350329115,0.9666263636382614,-0.0026011100618299273,0.974780692255737,0.005578624949340455,-0.02377253834367565,-0.0009515396249022657
1976969.640111862,-0.023354354489055432,-0.0018473725784714182,0.9743079655124153,0.0035409202821172145,0.9694611403083648,-0.0028238392561623226,-0.023242349259960896,-0.002377123703335463
1995262.3149688789,-0.018344609368253967,-0.0002624495551202073,0.970241149964965,-0.0002973675848707214,0.9786330629301151,0.0006103267684819,-0.025540173398758744,0.007022528863704858
2013724.2498623894,-0.024604972024050126,0.0008757956578433201,0.9719245183988872,-0.008624262074017777,0.9744390665831054,0.0008409730976204866,-0.019840180732202804,-0.00016849322367638061
2032357.0109362209,-0.022351045194040377,-0.00015178391468284512,0.9816727520779376,0.0005569565829736506,0.9797306030704247,-0.00040423300677474476,-0.022853535164743834,-0.00048800132560680845
2051162.1788255668,-0.01828656945887207,0.0018389841621282992,0.9771461357551249,-0.0022039533622502058,0.9785076183183306,-0.003623572746806567,-0.025428338637830825,0.010276564512108916
2070141.3487910414,-0.024157431737124944,-0.0028150092126016397,0.9731686745258169,4.09920342429448e-05,0.9790732016784498,-0.005544319037431109,-0.02851440477353419,9.813129331265395e-05
2089296.1308540408,-0.02165211771966214,-0.0035786614299339378,0.9749423773806081,-0.001861027302496303,0.9797090209090117,0.0033453543276776685,-0.021762302457564546,0.0013396614868019933
2108628.149933289,-0.018018084225790373,0.0016741709915385908,0.9781673656414314,-0.006514479278844796,0.9701075133276598,0.006113870749928269,-0.024624681882697882,-0.004486846932769839
2128139.0459827133,-0.028492372845635626,0.005031783419615269,0.9737956728801643,0.003257224100521943,0.9808989518449148,0.001702485165833122,-0.022158979333411835,-0.0033106261635925936
2147830.474130533,-0.026836606100791055,0.0002094409490685171,0.9720616396166932,-0.0019693484450568227,0.9757243877243016,-0.00021948500753129184,-0.02864831012359939,-0.0011956764145992728
2167704.1048196964,-0.026739342536731863,-0.007459231599384665,0.9767016815845856,0.0036021497020648214,0.9796532405605296,-0.0006079698743040008,-0.02225968641305829,-0.0020208962246390664
2187761.623949552,-0.032409866847549096,-0.0022882389531208892,0.9766749299841503,0.0009275148790669862,0.9758617639388584,-0.003455240822247355,-0.022941737568651317,-0.008220208092875854
2208004.733018901,-0.018733621720501168,0.00109483411353132,0.9683883104249031,0.0014867402951512295,0.9735407824055509,-0.0010288315840693617,-0.02232218347650365,-0.004347780260862678
2228435.149270303,-0.029925938081098405,-2.190036845684456e-05,0.9807754639851777,-0.005459038050666904,0.9768988904614427,-0.003928481849976151,-0.021427313732557695,-0.0029606175393339074
2249054.605835783,-0.026388662613674375,0.002617529159167756,0.9784578131165337,-0.0016053959154818998,0.9793492906476136,-0.0019037900301703023,-0.023575286727868006,0.006505166214986672
2269864.851883821,-0.02356995882856822,0.0008942497987943165,0.9765558393844725,0.0008471118452957089,0.9725879296203986,-0.0016333215495968943,-0.024906712333854893,-0.0024266697780949043
2290867.6527677746,-0.02492419301132068,-0.00799493162280813,0.9769515143774998,0.0030480827789843507,0.9791090207164486,0.001226574887399224,-0.028095240434661856,-0.0009695900589950497
2312064.790175594,-0.02482789798938267,-0.0008259717359058033,0.9807947280335423,0.0022308266384347846,0.973007074815892,-0.005787163535258394,-0.02726824144378027,-0.0024102629399172276
2333458.0622810046,-0.023682296988943228,-0.004325936820527684,0.9785649795063462,0.005851405688299785,0.9756496225341099,0.0027159175610827254,-0.019739006593822942,-0.008058301044377603
2355049.283896009,-0.021391592040792044,-0.005650270610095579,0.9785559992543404,-0.0008153147736068664,0.9775490367748595,-0.002005645659109151,-0.016243585128563588,-0.004987442645124773
2376840.286624878,-0.025108439253349792,0.006451304929098892,0.9685972986354487,0.0007385267962612059,0.9812245169229916,0.001306494227342999,-0.02599232135066753,-0.0027774152249905697
2398832.91901949,-0.024012794193584725,0.002169308480875489,0.9801930516482266,-0.0016901656976845607,0.9700017158575084,-0.0013503521422237675,-0.02877114099815683,0.00177985582514089
2421029.04673618,-0.029994850979907586,-0.006063461068210303,0.9728301447849197,0.005227627918979186,0.9771483499210681,0.0002763926610343117,-0.022555720750146897,0.0041213351402322315
2443430.5526939714,-0.02342342106911922,-0.004129288001114308,0.9706649387096077,-0.0035963967870471197,0.9675242572750167,-0.004431969628547787,-0.024200143147902822,0.0005107230013784922
2466039.337234341,-0.026041599357699445,-0.0001377575490014637,0.9772174669610431,-0.001994140473024457,0.9780664544518093,-0.003917941280813803,-0.023906538227759885,-0.004801786049773273
2488857.3182823905,-0.021729920031627423,-0.0005418042871963368,0.9764118539789599,-0.0020016643641091415,0.9774648406391623,-0.0027717351088029593,-0.0268567422504875,0.005042702565911593
2511886.4315095823,-0.02501902841749122,-0.0006636936055265437,0.9762983278692184,0.004069596536892264,0.97848146119488,-0.002241936371241413,-0.02576848257186712,0.00048116326144332413
2535128.6304979073,-0.022566305761712854,-0.0005731947436014655,0.974679173071521,-0.006320706770017723,0.9751982112575763,0.0046201553852194014,-0.021487074509690993,-0.000852066311317749
2558585.886905648,-0.03136610519312689,0.0022299279738266335,0.9710719529573011,-0.0030146363235041863,0.970421957214513,-0.0009594911304179049,-0.032558050313906406,-0.0034165190546204703
2582260.1906345957,-0.026764322223539472,0.003939919335756299,0.978232621966051,0.0007038573621617862,0.9746125090846649,0.0008986119894675297,-0.02369813139619987,0.004367569160951847
2606153.5499988976,-0.020578138284910747,0.00365754687509863,0.9802565019395385,0.0022890512124290486,0.9753676177050601,-0.00536569337867907,-0.01965284890990563,-0.002824524582356343
